,rpm,t,id,iq,torque,motorpwr,accpwr,current,voltage,vout,vd,vq,phasepwr
0,1,230,0.0,410.31130140041034,230.0,24.086796246648795,26.68897091041418,0.08826296703075329,302.3801671130684,170.70998257368132,-0.04253802201542508,3.1574996631313357,1295.6753601390346
1,11,230,0.0,410.31130140041034,230.0,264.95475871313675,293.57868001455597,0.971712832739588,302.12493844686514,170.56262623454393,-0.46791824216967587,3.548837388013504,1468.7307408351435
2,21,230,0.0,410.31130140041034,230.0,505.8227211796247,560.4683891186978,1.8566534079087853,301.86927911469877,170.41502125029683,-0.8932984623239268,3.940175112895673,1657.726823278054
3,31,230,0.0,410.31130140041034,230.0,746.6906836461126,827.3580982228394,2.743109827645158,301.6131818550369,170.26716342849232,-1.3186786824781775,4.331512837777841,1857.804977250199
4,41,230,0.0,410.31130140041034,230.0,987.5586461126005,1094.2478073269813,3.6310285375946414,301.3566621397325,170.1190617018089,-1.744058902632428,4.7228505626600095,2065.7476437634737
5,51,230,0.0,410.31130140041034,230.0,1228.4266085790885,1361.137516431123,4.520554171740534,301.09967818402777,169.97069194580536,-2.1694391227866796,5.114188287542179,2279.4034753136048
6,61,230,0.0,410.31130140041034,230.0,1469.2945710455765,1628.027225535265,5.411563418806148,300.84226561255053,169.82207472837018,-2.59481934294093,5.5055260124243475,2497.306541089379
7,71,230,0.0,410.31130140041034,230.0,1710.1625335120643,1894.9169346394067,6.3041077915660715,300.58440954326016,169.6732014573532,-3.0201995630951814,5.896863737306516,2718.4356895837223
8,81,230,0.0,410.31130140041034,230.0,1951.0304959785524,2161.8066437435486,7.198195163515481,300.326107701504,169.5240708194831,-3.445579783249432,6.288201462188684,2942.063581565823
9,91,230,0.0,410.31130140041034,230.0,2191.8984584450404,2428.6963528476904,8.09383346208485,300.0673577970473,169.37468149249224,-3.8709600034036824,6.679539187070853,3167.6610486111003
10,101,230,0.0,410.31130140041034,230.0,2432.7664209115283,2695.586061951832,8.99103066910257,299.8081575239398,169.22503214503962,-4.296340223557934,7.070876911953022,3394.8354600979856
11,111,230,0.0,410.31130140041034,230.0,2673.634383378016,2962.475771055974,9.889794821262354,299.54850456038093,169.075121436633,-4.721720443712185,7.46221463683519,3623.2902126007093
12,121,230,0.0,410.31130140041034,230.0,2914.502345844504,3229.3654801601156,10.79013401059547,299.2883965685826,168.92494801754987,-5.147100663866435,7.853552361717359,3852.797556277276
13,131,230,0.0,410.31130140041034,230.0,3155.370308310992,3496.2551892642573,11.692056384947836,299.02783119463214,168.77451052875807,-5.572480884020686,8.244890086599527,4083.18000288046
14,141,230,0.0,410.31130140041034,230.0,3396.23827077748,3763.144898368399,12.595570148462102,298.7668060683529,168.6238076018355,-5.9978611041749375,8.636227811481696,4314.297363827423
15,151,230,0.0,410.31130140041034,230.0,3637.106233243968,4030.0346074725408,13.500683562064681,298.5053188031631,168.4728378588885,-6.423241324329187,9.027565536363863,4546.0375529104795
16,161,230,0.0,410.31130140041034,230.0,3877.9741957104557,4296.924316576682,14.407404943957902,298.24336699593414,168.32159991247016,-6.8486215444834375,9.418903261246031,4778.309952562205
17,171,230,0.0,410.31130140041034,230.0,4118.8421581769435,4563.814025680824,15.315742670117263,297.98094822684675,168.17009236549714,-7.274001764637689,9.810240986128202,5011.040556049852
18,181,230,0.0,410.31130140041034,230.0,4359.710120643432,4830.703734784966,16.225705174793855,297.71806005924566,168.01831381116588,-7.699381984791941,10.20157871101037,5244.168359934343
19,191,230,0.0,410.31130140041034,230.0,4600.57808310992,5097.593443889108,17.137377366073878,297.45467796318485,167.86625008710544,-8.12476220494619,10.592916435892539,5477.64265004894
20,201,230,0.0,410.31130140041034,230.0,4841.446045576407,5364.48315299325,18.05053855113263,297.19086569682145,167.71393800410502,-8.550142425100443,10.984254160774707,5711.420935045197
21,211,230,0.0,410.31130140041034,230.0,5082.314008042896,5631.372862097392,18.965426587270947,296.92655454318106,167.5613378884009,-8.975522645254692,11.375591885656876,5945.46735541022
22,221,230,0.0,410.31130140041034,230.0,5323.181970509383,5898.262571201533,19.88197373192101,296.66176407309166,167.40846103921595,-9.400902865408943,11.766929610539044,6179.751445856323
23,231,230,0.0,410.31130140041034,230.0,5564.049932975871,6165.152280305675,20.800188718434708,296.39649176348786,167.25530599985765,-9.826283085563196,12.158267335421215,6414.247163324524
24,241,230,0.0,410.31130140041034,230.0,5804.91789544236,6432.041989409818,21.72008034156679,296.130735073565,167.10187130339173,-10.251663305717445,12.549605060303382,6648.932116754445
25,251,230,0.0,410.31130140041034,230.0,6045.785857908847,6698.9316985139585,22.64189144768594,295.86442384500714,166.94811644389563,-10.677043525871698,12.940942785185552,6883.786951637845
26,261,230,0.0,410.31130140041034,230.0,6286.653820375335,6965.821407618101,23.564928986968606,295.5977582999084,166.79415701964928,-11.102423746025945,13.332280510067719,7118.794854412426
27,271,230,0.0,410.31130140041034,230.0,6527.521782841823,7232.711116722241,24.48990391065612,295.3305330444551,166.63987444647904,-11.527803966180196,13.723618234949887,7353.941150445578
28,281,230,0.0,410.31130140041034,230.0,6768.389745308311,7499.600825826384,25.416963757395763,295.062705454732,166.485244115456,-11.953184186334449,14.114955959832056,7589.2129757019975
29,291,230,0.0,410.31130140041034,230.0,7009.257707774799,7766.490534930525,26.345430504630723,294.79447141145585,166.3303791183647,-12.378564406488698,14.506293684714224,7824.599006866034
30,301,230,0.0,410.31130140041034,230.0,7250.125670241287,8033.380244034667,27.27513982980996,294.5258783874115,166.17530686363025,-12.80394462664295,14.897631409596393,8060.089238170565
31,311,230,0.0,410.31130140041034,230.0,7490.993632707775,8300.26995313881,28.207019435224552,294.25665836940726,166.01987261376425,-13.229324846797201,15.288969134478561,8295.674795797848
32,321,230,0.0,410.31130140041034,230.0,7731.861595174263,8567.159662242952,29.14064831188888,293.9869329869389,165.86414659158888,-13.654705066951452,15.68030685936073,8531.34778269747
33,331,230,0.0,410.31130140041034,230.0,7972.7295576407505,8834.049371347093,30.076035832211755,293.7166995323176,165.70812723381923,-14.080085287105701,16.071644584242897,8767.101148177604
34,341,230,0.0,410.31130140041034,230.0,8213.597520107238,9100.939080451233,31.013191435676887,293.44595527847656,165.55181296598255,-14.50546550725995,16.462982309125064,9002.928577788216
35,351,230,0.0,410.31130140041034,230.0,8454.465482573727,9367.828789555377,31.953060308804012,293.17442716103017,165.39504613428232,-14.930845727414205,16.854320034007234,9238.824399915453
36,361,230,0.0,410.31130140041034,230.0,8695.333445040214,9634.718498659518,32.89389668053818,292.90261953323613,165.23811792720764,-15.356225947568454,17.2456577588894,9474.783506208949
37,371,230,0.0,410.31130140041034,230.0,8936.201407506702,9901.60820776366,33.836540633028115,292.63028969536174,165.0808882220025,-15.781606167722707,17.63699548377157,9710.801283515377
38,381,230,0.0,410.31130140041034,230.0,9177.069369973191,10168.497916867804,34.78100257187213,292.35743464122976,164.92335528304966,-16.20698638787696,18.02833320865374,9946.873555427215
39,391,230,0.0,410.31130140041034,230.0,9417.937332439678,10435.387625971944,35.72729299973983,292.08405133661876,164.76551735854054,-16.632366608031205,18.419670933535908,10182.996531902054
40,401,230,0.0,410.31130140041034,230.0,9658.805294906166,10702.277335076085,36.67542251754191,291.8101367189258,164.60737268028052,-17.057746828185454,18.811008658418075,10419.166765684284
41,411,230,0.0,410.31130140041034,230.0,9899.673257372655,10969.167044180229,37.62540182561684,291.5356876968229,164.4489194634906,-17.48312704833971,19.20234638330025,10655.381114483393
42,421,230,0.0,410.31130140041034,230.0,10140.541219839142,11236.05675328437,38.577241724934865,291.2607011499099,164.29015590660686,-17.90850726849396,19.593684108182416,10891.636708042432
43,431,230,0.0,410.31130140041034,230.0,10381.40918230563,11502.94646238851,39.530953118319744,290.985173928361,164.13108019107653,-18.333887488648212,19.985021833064586,11127.930919375985
44,441,230,0.0,410.31130140041034,230.0,10622.277144772119,11769.836171492654,40.4865470116883,290.70910285256684,163.9716904811513,-18.75926770880246,20.376359557946753,11364.261339575458
45,451,230,0.0,410.31130140041034,230.0,10863.145107238606,12036.725880596796,41.44403451530819,290.43248471277104,163.81198492367747,-19.18464792895671,20.767697282828923,11600.625755676863
46,461,230,0.0,410.31130140041034,230.0,11104.013069705094,12303.615589700936,42.40342684507426,290.15531626870165,163.65196164788313,-19.61002814911096,21.15903500771109,11837.022131166103
47,471,230,0.0,410.31130140041034,230.0,11344.881032171581,12570.505298805076,43.36473532380371,289.8775942491967,163.49161876516206,-20.035408369265216,21.55037273259326,12073.44858876276
48,481,230,0.0,410.31130140041034,230.0,11585.74899463807,12837.39500790922,44.32797138255049,289.59931535182477,163.33095436885458,-20.460788589419465,21.941710457475427,12309.903395178108
49,491,230,0.0,410.31130140041034,230.0,11826.616957104558,13104.284717013361,45.29314656193913,289.3204762424994,163.16996653402498,-20.886168809573718,22.333048182357597,12546.384947588536
50,501,230,0.0,410.31130140041034,230.0,12067.484919571045,13371.174426117503,46.26027251351851,289.04107355508813,163.0086533172358,-21.311549029727964,22.72438590723976,12782.89176160361
51,511,230,0.0,410.31130140041034,230.0,12308.352882037534,13638.064135221644,47.229361001135736,288.7611038910155,162.84701275631855,-21.736929249882216,23.11572363212193,13019.42246053985
52,521,230,0.0,410.31130140041034,230.0,12549.220844504021,13904.953844325786,48.200423902330655,288.4805638188603,162.68504287014122,-22.16230947003647,23.507061357004105,13255.975765837997
53,531,230,0.0,410.31130140041034,230.0,12790.088806970509,14171.843553429928,49.173473209751215,288.1994498739465,162.5227416583723,-22.587689690190714,23.898399081886268,13492.550488484285
54,541,230,0.0,410.31130140041034,230.0,13030.956769436998,14438.733262534071,50.14852103259013,287.9177585579283,162.36010710124083,-23.013069910344974,24.289736806768442,13729.145521315217
55,551,230,0.0,410.31130140041034,230.0,13271.824731903485,14705.622971638211,51.12557959804316,287.63548633836893,162.19713715929345,-23.438450130499223,24.68107453165061,13965.75983210152
56,561,230,0.0,410.31130140041034,230.0,13512.692694369973,14972.512680742353,52.104661252789526,287.3526296483127,162.0338297731474,-23.86383035065347,25.072412256532772,14202.39245732104
57,571,230,0.0,410.31130140041034,230.0,13753.560656836462,15239.402389846497,53.085778464494574,287.06918488585114,161.87018286323985,-24.28921057080772,25.463749981414942,14439.042496541715
58,581,230,0.0,410.31130140041034,230.0,13994.42861930295,15506.292098950638,54.068943823335395,286.785148413682,161.70619432957332,-24.714590790961974,25.855087706297116,14675.709107346205
59,591,230,0.0,410.31130140041034,230.0,14235.296581769437,15773.181808054778,55.054170043549654,286.5005165586621,161.54186205145766,-25.139971011116227,26.246425431179283,14912.391500738226
60,601,230,0.0,410.31130140041034,230.0,14476.164544235926,16040.071517158922,56.041469965008,286.2152856113528,161.37718388724738,-25.565351231270473,26.63776315606145,15149.088936978145
61,611,230,0.0,410.31130140041034,230.0,14717.032506702413,16306.961226263064,57.03085655481058,285.92945182555883,161.21215767407574,-25.990731451424722,27.029100880943616,15385.800721801783
62,621,230,0.0,410.31130140041034,230.0,14957.9004691689,16573.850935367205,58.02295268173647,285.64283525448997,161.04667951961494,-26.416111671578978,27.420438605825787,15622.526202981951
63,631,230,0.0,410.31130140041034,230.0,15198.768431635388,16840.740644471345,59.0159422537474,285.355960567136,160.88105234164743,-26.84149189173323,27.811776330707957,15859.264767197052
64,641,230,0.0,410.31130140041034,230.0,15439.636394101877,17107.63035357549,60.01166794794342,285.0682954140828,160.7149687880957,-27.26687211188748,28.203114055590127,16096.01583717525
65,651,230,0.0,410.31130140041034,230.0,15680.504356568365,17374.520062679632,61.00953348397573,284.78001206072304,160.54852831643055,-27.69225233204173,28.594451780472294,16332.778869086353
66,661,230,0.0,410.31130140041034,230.0,15921.372319034852,17641.409771783772,62.01040863626699,284.4908592292261,160.38158585132885,-28.117632552195985,28.985789505354465,16569.55335015672
67,671,230,0.0,410.31130140041034,230.0,16162.240281501341,17908.299480887916,63.01266797379721,284.2013065066136,160.21441250898394,-28.543012772350227,29.377127230236628,16806.33879648522
68,681,230,0.0,410.31130140041034,230.0,16403.10824396783,18175.189189992056,64.01711358947523,283.9111221682442,160.04687450311175,-28.96839299250448,29.768464955118798,17043.134751040892
69,691,230,0.0,410.31130140041034,230.0,16643.976206434316,18442.0788990962,65.02375981854021,283.62030207266736,159.87896944264472,-29.39377321265873,30.159802680000965,17279.940781824735
70,701,230,0.0,410.31130140041034,230.0,16884.844168900803,18708.96860820034,66.0314406184282,283.3291830895797,159.71089181939286,-29.81915343281298,30.551140404883135,17516.75648018035
71,711,230,0.0,410.31130140041034,230.0,17125.71213136729,18975.85831730448,67.04243626455117,283.03710644741477,159.54226129141492,-30.244533652967235,30.942478129765302,17753.58145923942
72,721,230,0.0,410.31130140041034,230.0,17366.58009383378,19242.748026408626,68.05704788570337,282.7439851500639,159.37302763148418,-30.669913873121484,31.333815854647472,17990.415352489716
73,731,230,0.0,410.31130140041034,230.0,17607.44805630027,19509.637735512766,69.07264306671772,282.4505797022689,159.20362991721802,-31.095294093275736,31.725153579529646,18227.25781245452
74,741,230,0.0,410.31130140041034,230.0,17848.316018766756,19776.527444616906,70.08891097801305,282.15697990269564,159.0341199939004,-31.520674313429993,32.11649130441181,18464.108509473444
75,751,230,0.0,410.31130140041034,230.0,18089.183981233244,20043.41715372105,71.11067274191547,281.86179292910424,158.8636937152361,-31.94605453358423,32.50782902929397,18700.967130575722
76,761,230,0.0,410.31130140041034,230.0,18330.05194369973,20310.30686282519,72.1312821021519,281.5669388849319,158.6934596534616,-32.371434753738484,32.89916675417614,18937.83337843789
77,771,230,0.0,410.31130140041034,230.0,18570.91990616622,20577.196571929333,73.15792438102041,281.2703419305668,158.52221932201806,-32.79681497389274,33.29050447905831,19174.70697041855
78,781,230,0.0,410.31130140041034,230.0,18811.78786863271,20844.086281033477,74.18504766428384,280.973606014032,158.35089876072846,-33.222195194046996,33.681842203940484,19411.587637663688
79,791,230,0.0,410.31130140041034,230.0,19052.655831099197,21110.975990137616,75.21452386384422,280.67619033997903,158.17918574125275,-33.647575414201235,34.073179928822654,19648.475124276596
80,801,230,0.0,410.31130140041034,230.0,19293.523793565684,21377.86569924176,76.24636916017745,280.37809023386836,158.00707756474432,-34.072955634355495,34.46451765370482,19885.369186547017
81,811,230,0.0,410.31130140041034,230.0,19534.39175603217,21644.755408345896,77.28059991716297,280.07930096817523,157.83457150176542,-34.49833585450974,34.85585537858699,20122.269592234607
82,821,230,0.0,410.31130140041034,230.0,19775.25971849866,21911.645117450036,78.31723268490887,279.77981776157344,157.6616647918161,-34.92371607466399,35.24719310346915,20359.1761199024
83,831,230,0.0,410.31130140041034,230.0,20016.127680965146,22178.53482655418,79.35628420263036,279.47963577810367,157.48835464285395,-35.34909629481824,35.63853082835132,20596.088558296145
84,841,230,0.0,410.31130140041034,230.0,20256.995643431637,22445.424535658323,80.39777140158354,279.1787501263261,157.3146382308049,-35.77447651497249,36.0298685532335,20833.00670576596
85,851,230,0.0,410.31130140041034,230.0,20497.863605898125,22712.314244762467,81.44171140805517,278.8771558584565,157.14051269906432,-36.19985673512675,36.42120627811567,21069.93036972691
86,861,230,0.0,410.31130140041034,230.0,20738.731568364612,22979.203953866607,82.48843756484317,278.5747566717604,156.9659224472226,-36.625236955281,36.81254400299783,21306.859366155528
87,871,230,0.0,410.31130140041034,230.0,20979.5995308311,23246.093662970747,83.53701934219606,278.2718213962832,156.7910226843788,-37.05061717543525,37.20388172788,21543.79351911955
88,881,230,0.0,410.31130140041034,230.0,21220.467493297587,23512.98337207489,84.58842252531208,277.96807101668094,156.61565232094898,-37.475997395589495,37.59521945276217,21780.732660338224
89,891,230,0.0,410.31130140041034,230.0,21461.335455764074,23779.87308117903,85.6423490332335,277.6635916485425,156.43986107579155,-37.90137761574375,37.986557177644336,22017.676628771016
90,901,230,0.0,410.31130140041034,230.0,21702.20341823056,24046.762790283174,86.6988170143035,277.35837804881135,156.26364592182645,-38.32675783589799,38.377894902526506,22254.625270232555
91,911,230,0.0,410.31130140041034,230.0,21943.071380697053,24313.652499387317,87.75784483108745,277.05242491254245,156.0870037962422,-38.752138056052246,38.76923262740868,22491.57843703185
92,921,230,0.0,410.31130140041034,230.0,22183.93934316354,24580.542208491457,88.81945106379321,276.74572687191375,155.90993159992527,-39.177518276206506,39.16057035229085,22728.535987634077
93,931,230,0.0,410.31130140041034,230.0,22424.807305630027,24847.4319175956,89.88365451375887,276.43827849521864,155.73242619687844,-39.60289849636076,39.55190807717302,22965.49778634327
94,941,230,0.0,410.31130140041034,230.0,22665.675268096515,25114.32162669974,90.95047420700901,276.1300742858387,155.55448441362756,-40.028278716515004,39.94324580205518,23202.463703004385
95,951,230,0.0,410.31130140041034,230.0,22906.543230563002,25381.21133580388,92.01992939788187,275.82110868119554,155.3761030386165,-40.45365893666925,40.334583526937344,23439.433612723522
96,961,230,0.0,410.31130140041034,230.0,23147.41119302949,25648.101044908024,93.09203957272817,275.5113760516825,155.19727882159032,-40.8790391568235,40.72592125181952,23676.40739560479
97,971,230,0.0,410.31130140041034,230.0,23388.27915549598,25914.990754012168,94.16682445368393,275.2008706995743,155.01800847296585,-41.30441937697776,41.11725897670169,23913.384936502905
98,981,230,0.0,410.31130140041034,230.0,23629.147117962468,26181.88046311631,95.24430400251872,274.88958685791596,154.83828866319,-41.72979959713201,41.508596701583855,24150.366124790264
99,991,230,0.0,410.31130140041034,230.0,23870.015080428955,26448.77017222045,96.32449842456133,274.57751868938783,154.65811602208478,-42.15517981728626,41.89993442646603,24387.35085413767
100,1001,230,0.0,410.31130140041034,230.0,24110.883042895442,26715.65988132459,97.40832031931738,274.2644025439928,154.47733833125335,-42.58056003744051,42.291272151348196,24624.339022307584
101,1011,230,0.0,410.31130140041034,230.0,24351.75100536193,26982.549590428735,98.49311395148982,273.95100566365824,154.296398558029,-43.00594025759476,42.68260987623036,24861.3305309593
102,1021,230,0.0,410.31130140041034,230.0,24592.618967828417,27249.439299532874,99.58157672127803,273.6365487694664,154.1148467855188,-43.431320477749004,43.07394760111252,25098.3252854651
103,1031,230,0.0,410.31130140041034,230.0,24833.486930294905,27516.329008637014,100.6728377025008,273.32128347199114,153.93282828115534,-43.85670069790326,43.4652853259947,25335.323194736706
104,1041,230,0.0,410.31130140041034,230.0,25074.354892761396,27783.21871774116,101.76691838000205,273.005203564261,153.75033946134192,-44.28208091805752,43.85662305087687,25572.32417106136
