,rpm,t,id,iq,torque,motorpwr,accpwr,current,voltage,vout,vd,vq,phasepwr
0,1,230,0.0,282.9028290282903,229.99999999999997,24.08679624664879,26.688970910414177,0.08826296703075327,302.3801671130684,168.46986829088232,-0.0542146924106578,5.1490090297840805,1456.749964351937
1,11,230,0.0,282.9028290282903,229.99999999999997,264.9547587131367,293.5786800145559,0.9717128327395878,302.12493844686514,168.32251195174493,-0.5963616165172357,5.716590102532636,1626.0158395553754
2,21,230,0.0,282.9028290282903,229.99999999999997,505.8227211796246,560.4683891186977,1.8566534079087849,301.86927911469877,168.17490696749783,-1.138508540623814,6.284171175281192,1806.7506519108122
3,31,230,0.0,282.9028290282903,229.99999999999997,746.6906836461125,827.3580982228393,2.7431098276451578,301.6131818550369,168.02704914569333,-1.680655464730392,6.851752248029748,1995.841096311249
4,41,230,0.0,282.9028290282903,229.99999999999997,987.5586461126004,1094.2478073269813,3.6310285375946414,301.3566621397325,167.8789474190099,-2.22280238883697,7.419333320778303,2191.125008099538
5,51,230,0.0,282.9028290282903,229.99999999999997,1228.4266085790882,1361.1375164311228,4.5205541717405335,301.09967818402777,167.73057766300636,-2.7649493129435485,7.98691439352686,2391.0853762178967
6,61,230,0.0,282.9028290282903,229.99999999999997,1469.2945710455763,1628.0272255352647,5.411563418806147,300.84226561255053,167.58196044557118,-3.3070962370501262,8.554495466275416,2594.641229044303
7,71,230,0.0,282.9028290282903,229.99999999999997,1710.162533512064,1894.9169346394065,6.304107791566071,300.58440954326016,167.4330871745542,-3.8492431611567044,9.122076539023972,2801.008799414874
8,81,230,0.0,282.9028290282903,229.99999999999997,1951.030495978552,2161.8066437435477,7.198195163515478,300.326107701504,167.2839565366841,-4.391390085263282,9.689657611772528,3009.609748321557
9,91,230,0.0,282.9028290282903,229.99999999999997,2191.89845844504,2428.69635284769,8.093833462084849,300.0673577970473,167.13456720969324,-4.93353700936986,10.257238684521084,3220.010052132494
10,101,230,0.0,282.9028290282903,229.99999999999997,2432.766420911528,2695.5860619518317,8.991030669102567,299.8081575239398,166.98491786224062,-5.4756839334764384,10.82481975726964,3431.8787843287873
11,111,230,0.0,282.9028290282903,229.99999999999997,2673.6343833780156,2962.4757710559734,9.889794821262353,299.54850456038093,166.835007153834,-6.017830857583017,11.392400830018197,3644.959890131486
12,121,230,0.0,282.9028290282903,229.99999999999997,2914.5023458445035,3229.3654801601147,10.790134010595466,299.2883965685826,166.68483373475087,-6.559977781689596,11.959981902766753,3859.052547822873
13,131,230,0.0,282.9028290282903,229.99999999999997,3155.3703083109917,3496.255189264257,11.692056384947836,299.02783119463214,166.53439624595907,-7.102124705796173,12.527562975515309,4073.99728631459
14,141,230,0.0,282.9028290282903,229.99999999999997,3396.2382707774796,3763.1448983683986,12.5955701484621,298.7668060683529,166.3836933190365,-7.644271629902751,13.095144048263863,4289.666020424976
15,151,230,0.0,282.9028290282903,229.99999999999997,3637.106233243967,4030.03460747254,13.50068356206468,298.5053188031631,166.2327235760895,-8.186418554009329,13.662725121012418,4505.954793440367
16,161,230,0.0,282.9028290282903,229.99999999999997,3877.974195710455,4296.924316576682,14.407404943957902,298.24336699593414,166.08148562967116,-8.728565478115906,14.230306193760974,4722.778418486026
17,171,230,0.0,282.9028290282903,229.99999999999997,4118.842158176943,4563.814025680823,15.315742670117256,297.98094822684675,165.92997808269814,-9.270712402222484,14.79788726650953,4940.066470762928
18,181,230,0.0,282.9028290282903,229.99999999999997,4359.710120643431,4830.7037347849655,16.225705174793852,297.71806005924566,165.77819952836688,-9.812859326329065,15.365468339258088,5157.760253912969
19,191,230,0.0,282.9028290282903,229.99999999999997,4600.578083109919,5097.593443889107,17.137377366073878,297.45467796318485,165.62613580430644,-10.355006250435641,15.933049412006643,5375.810477870497
20,201,230,0.0,282.9028290282903,229.99999999999997,4841.4460455764065,5364.483152993249,18.050538551132625,297.19086569682145,165.47382372130602,-10.897153174542222,16.5006304847552,5594.1754626548545
21,211,230,0.0,282.9028290282903,229.99999999999997,5082.314008042895,5631.372862097391,18.965426587270947,296.92655454318106,165.32122360560192,-11.439300098648797,17.068211557503755,5812.819735361372
22,221,230,0.0,282.9028290282903,229.99999999999997,5323.181970509383,5898.262571201533,19.88197373192101,296.66176407309166,165.16834675641695,-11.981447022755376,17.63579263025231,6031.712924244092
23,231,230,0.0,282.9028290282903,229.99999999999997,5564.04993297587,6165.152280305674,20.800188718434704,296.39649176348786,165.01519171705866,-12.523593946861956,18.20337370300087,6250.828879519049
24,241,230,0.0,282.9028290282903,229.99999999999997,5804.917895442359,6432.041989409817,21.720080341566785,296.130735073565,164.86175702059273,-13.065740870968531,18.770954775749424,6470.144968809822
25,251,230,0.0,282.9028290282903,229.99999999999997,6045.785857908846,6698.931698513958,22.641891447685936,295.86442384500714,164.70800216109663,-13.607887795075113,19.33853584849798,6689.641508305982
26,261,230,0.0,282.9028290282903,229.99999999999997,6286.653820375334,6965.8214076181,23.564928986968603,295.5977582999084,164.55404273685028,-14.150034719181686,19.906116921246536,6909.3013002571515
27,271,230,0.0,282.9028290282903,229.99999999999997,6527.521782841823,7232.711116722241,24.48990391065612,295.3305330444551,164.39976016368004,-14.692181643288265,20.47369799399509,7129.109254434918
28,281,230,0.0,282.9028290282903,229.99999999999997,6768.38974530831,7499.600825826383,25.41696375739576,295.062705454732,164.245129832657,-15.234328567394844,21.04127906674365,7349.052076387373
29,291,230,0.0,282.9028290282903,229.99999999999997,7009.257707774797,7766.490534930524,26.345430504630716,294.79447141145585,164.0902648355657,-15.776475491501422,21.6088601394922,7569.118009192822
30,301,230,0.0,282.9028290282903,229.99999999999997,7250.125670241286,8033.380244034666,27.275139829809955,294.5258783874115,163.93519258083126,-16.318622415608,22.17644121224076,7789.296618345602
31,311,230,0.0,282.9028290282903,229.99999999999997,7490.993632707773,8300.269953138808,28.207019435224545,294.25665836940726,163.77975833096525,-16.860769339714576,22.744022284989313,8009.578611631383
32,321,230,0.0,282.9028290282903,229.99999999999997,7731.861595174261,8567.15966224295,29.140648311888878,293.9869329869389,163.62403230878988,-17.402916263821158,23.311603357737873,8229.955687552952
33,331,230,0.0,282.9028290282903,229.99999999999997,7972.72955764075,8834.049371347091,30.07603583221175,293.7166995323176,163.46801295102023,-17.945063187927733,23.879184430486426,8450.420407181942
34,341,230,0.0,282.9028290282903,229.99999999999997,8213.597520107238,9100.939080451233,31.013191435676887,293.44595527847656,163.31169868318355,-18.48721011203431,24.446765503234978,8670.96608533319
35,351,230,0.0,282.9028290282903,229.99999999999997,8454.465482573725,9367.828789555375,31.953060308804005,293.17442716103017,163.15493185148333,-19.02935703614089,25.014346575983538,8891.58669775701
36,361,230,0.0,282.9028290282903,229.99999999999997,8695.333445040213,9634.718498659517,32.89389668053818,292.90261953323613,162.99800364440864,-19.571503960247465,25.58192764873209,9112.276801673108
37,371,230,0.0,282.9028290282903,229.99999999999997,8936.201407506702,9901.60820776366,33.836540633028115,292.63028969536174,162.8407739392035,-20.113650884354048,26.14950872148065,9333.03146746758
38,381,230,0.0,282.9028290282903,229.99999999999997,9177.06936997319,10168.497916867802,34.78100257187212,292.35743464122976,162.68324100025066,-20.655797808460623,26.717089794229203,9553.846219770323
39,391,230,0.0,282.9028290282903,229.99999999999997,9417.937332439677,10435.387625971942,35.727292999739824,292.08405133661876,162.52540307574154,-21.197944732567205,27.284670866977763,9774.71698644769
40,401,230,0.0,282.9028290282903,229.99999999999997,9658.805294906164,10702.277335076084,36.67542251754191,291.8101367189258,162.36725839748152,-21.74009165667378,27.852251939726315,9995.640054300062
41,411,230,0.0,282.9028290282903,229.99999999999997,9899.673257372653,10969.167044180227,37.62540182561684,291.5356876968229,162.2088051806916,-22.282238580780362,28.419833012474875,10216.612030460792
42,421,230,0.0,282.9028290282903,229.99999999999997,10140.54121983914,11236.056753284369,38.57724172493486,291.2607011499099,162.05004162380786,-22.824385504886937,28.987414085223428,10437.629808660302
43,431,230,0.0,282.9028290282903,229.99999999999997,10381.409182305628,11502.946462388509,39.53095311831974,290.985173928361,161.89096590827754,-23.366532428993516,29.554995157971987,10658.690539656438
44,441,230,0.0,282.9028290282903,229.99999999999997,10622.277144772117,11769.836171492652,40.4865470116883,290.70910285256684,161.73157619835231,-23.908679353100094,30.12257623072054,10879.791605244041
45,451,230,0.0,282.9028290282903,229.99999999999997,10863.145107238604,12036.725880596792,41.444034515308175,290.4324847127711,161.5718706408785,-24.450826277206673,30.6901573034691,11100.930595349446
46,461,230,0.0,282.9028290282903,229.99999999999997,11104.013069705092,12303.615589700934,42.40342684507425,290.15531626870165,161.41184736508413,-24.992973201313248,31.257738376217652,11322.10528779174
47,471,230,0.0,282.9028290282903,229.99999999999997,11344.881032171581,12570.505298805076,43.36473532380371,289.8775942491967,161.25150448236306,-25.53512012541983,31.825319448966212,11543.313630356211
48,481,230,0.0,282.9028290282903,229.99999999999997,11585.748994638068,12837.395007909217,44.32797138255048,289.59931535182477,161.09084008605558,-26.077267049526405,32.392900521714765,11764.553724878084
49,491,230,0.0,282.9028290282903,229.99999999999997,11826.616957104556,13104.28471701336,45.293146561939125,289.3204762424994,160.92985225122598,-26.619413973632984,32.960481594463324,11985.82381307884
50,501,230,0.0,282.9028290282903,229.99999999999997,12067.484919571045,13371.174426117503,46.26027251351851,289.04107355508813,160.7685390344368,-27.16156089773956,33.52806266721187,12207.122263934372
51,511,230,0.0,282.9028290282903,229.99999999999997,12308.352882037532,13638.064135221643,47.22936100113572,288.7611038910155,160.60689847351955,-27.703707821846134,34.09564373996043,12428.447562385509
52,521,230,0.0,282.9028290282903,229.99999999999997,12549.22084450402,13904.953844325784,48.20042390233065,288.4805638188603,160.44492858734222,-28.24585474595272,34.66322481270899,12649.798299227541
53,531,230,0.0,282.9028290282903,229.99999999999997,12790.088806970509,14171.843553429928,49.173473209751215,288.1994498739465,160.2826273755733,-28.788001670059295,35.23080588545754,12871.173162037841
54,541,230,0.0,282.9028290282903,229.99999999999997,13030.956769436996,14438.73326253407,50.148521032590125,287.9177585579283,160.11999281844183,-29.330148594165877,35.7983869582061,13092.570927019491
55,551,230,0.0,282.9028290282903,229.99999999999997,13271.824731903484,14705.62297163821,51.12557959804316,287.63548633836893,159.95702287649445,-29.872295518272452,36.36596803095466,13313.990451654921
56,561,230,0.0,282.9028290282903,229.99999999999997,13512.692694369971,14972.512680742351,52.10466125278952,287.3526296483127,159.7937154903484,-30.414442442379027,36.93354910370321,13535.430668077403
57,571,230,0.0,282.9028290282903,229.99999999999997,13753.560656836458,15239.402389846493,53.08577846449457,287.06918488585114,159.63006858044085,-30.956589366485606,37.50113017645177,13756.890577079974
58,581,230,0.0,282.9028290282903,229.99999999999997,13994.428619302946,15506.292098950635,54.06894382333538,286.785148413682,159.46608004677432,-31.49873629059219,38.06871124920033,13978.369242691471
59,591,230,0.0,282.9028290282903,229.99999999999997,14235.296581769435,15773.181808054776,55.05417004354965,286.5005165586621,159.30174776865866,-32.040883214698766,38.63629232194888,14199.865787258113
60,601,230,0.0,282.9028290282903,229.99999999999997,14476.164544235922,16040.071517158918,56.04146996500799,286.2152856113528,159.13706960444839,-32.58303013880534,39.20387339469743,14421.379386976603
61,611,230,0.0,282.9028290282903,229.99999999999997,14717.03250670241,16306.96122626306,57.030856554810576,285.92945182555883,158.97204339127674,-33.125177062911916,39.771454467445984,14642.909267831084
62,621,230,0.0,282.9028290282903,229.99999999999997,14957.900469168897,16573.8509353672,58.022952681736456,285.64283525448997,158.80656523681594,-33.6673239870185,40.339035540194544,14864.454701892122
63,631,230,0.0,282.9028290282903,229.99999999999997,15198.768431635386,16840.74064447134,59.01594225374739,285.355960567136,158.64093805884843,-34.20947091112508,40.906616612943104,15086.015003940627
64,641,230,0.0,282.9028290282903,229.99999999999997,15439.636394101874,17107.630353575485,60.01166794794341,285.0682954140828,158.4748545052967,-34.751617835231656,41.474197685691664,15307.58952838396
65,651,230,0.0,282.9028290282903,229.99999999999997,15680.50435656836,17374.520062679625,61.0095334839757,284.78001206072304,158.30841403363155,-35.29376475933824,42.041778758440216,15529.177666435153
66,661,230,0.0,282.9028290282903,229.99999999999997,15921.37231903485,17641.40977178377,62.01040863626697,284.4908592292261,158.14147156852985,-35.83591168344481,42.609359831188776,15750.778843529484
67,671,230,0.0,282.9028290282903,229.99999999999997,16162.240281501337,17908.299480887912,63.01266797379719,284.2013065066136,157.97429822618494,-36.37805860755139,43.17694090393732,15972.392516955406
68,681,230,0.0,282.9028290282903,229.99999999999997,16403.108243967825,18175.189189992052,64.01711358947522,283.9111221682442,157.80676022031275,-36.92020553165797,43.74452197668588,16194.018173679438
69,691,230,0.0,282.9028290282903,229.99999999999997,16643.976206434312,18442.078899096192,65.02375981854019,283.62030207266736,157.63885515984572,-37.462352455764545,44.312103049434434,16415.655328346664
70,701,230,0.0,282.9028290282903,229.99999999999997,16884.8441689008,18708.968608200335,66.03144061842819,283.3291830895797,157.47077753659386,-38.00449937987112,44.879684122182994,16637.30352144067
71,711,230,0.0,282.9028290282903,229.99999999999997,17125.71213136729,18975.85831730448,67.04243626455117,283.03710644741477,157.30214700861592,-38.546646303977695,45.447265194931546,16858.96231758816
72,721,230,0.0,282.9028290282903,229.99999999999997,17366.580093833778,19242.748026408623,68.05704788570335,282.7439851500639,157.13291334868518,-39.08879322808428,46.014846267680106,17080.631303995255
73,731,230,0.0,282.9028290282903,229.99999999999997,17607.448056300265,19509.637735512762,69.0726430667177,282.4505797022689,156.96351563441902,-39.63094015219086,46.582427340428666,17302.310089003644
74,741,230,0.0,282.9028290282903,229.99999999999997,17848.316018766753,19776.527444616902,70.08891097801303,282.15697990269564,156.7940057111014,-40.17308707629744,47.150008413177225,17523.998300756066
75,751,230,0.0,282.9028290282903,229.99999999999997,18089.18398123324,20043.417153721046,71.11067274191545,281.86179292910424,156.6235794324371,-40.71523400040401,47.717589485925764,17745.695585961545
76,761,230,0.0,282.9028290282903,229.99999999999997,18330.051943699727,20310.306862825186,72.13128210215189,281.5669388849319,156.4533453706626,-41.257380924510585,48.28517055867433,17967.401608751847
77,771,230,0.0,282.9028290282903,229.99999999999997,18570.91990616622,20577.196571929333,73.15792438102041,281.2703419305668,156.28210503921906,-41.79952784861717,48.85275163142288,18189.116049621305
78,781,230,0.0,282.9028290282903,229.99999999999997,18811.787868632706,20844.086281033473,74.18504766428383,280.973606014032,156.11078447792946,-42.34167477272375,49.42033270417145,18410.838604443143
79,791,230,0.0,282.9028290282903,229.99999999999997,19052.655831099193,21110.97599013761,75.21452386384419,280.67619033997903,155.93907145845375,-42.883821696830324,49.987913776919996,18632.568983555808
80,801,230,0.0,282.9028290282903,229.99999999999997,19293.52379356568,21377.865699241753,76.24636916017742,280.37809023386836,155.76696328194532,-43.42596862093691,50.555494849668555,18854.306910913685
81,811,230,0.0,282.9028290282903,229.99999999999997,19534.391756032168,21644.755408345893,77.28059991716296,280.07930096817523,155.59445721896643,-43.96811554504348,51.12307592241711,19076.05212329686
82,821,230,0.0,282.9028290282903,229.99999999999997,19775.259718498655,21911.645117450033,78.31723268490886,279.77981776157344,155.4215505090171,-44.51026246915006,51.69065699516566,19297.804369575297
83,831,230,0.0,282.9028290282903,229.99999999999997,20016.127680965146,22178.53482655418,79.35628420263036,279.47963577810367,155.24824036005495,-45.05240939325663,52.25823806791421,19519.56341002302
84,841,230,0.0,282.9028290282903,229.99999999999997,20256.995643431634,22445.42453565832,80.39777140158353,279.1787501263261,155.0745239480059,-45.594556317363214,52.82581914066278,19741.329015678493
85,851,230,0.0,282.9028290282903,229.99999999999997,20497.86360589812,22712.314244762463,81.44171140805516,278.8771558584565,154.90039841626532,-46.136703241469796,53.39340021341134,19963.10096774745
86,861,230,0.0,282.9028290282903,229.99999999999997,20738.73156836461,22979.203953866603,82.48843756484315,278.57475667176044,154.72580816442363,-46.67885016557637,53.96098128615989,20184.879057045106
87,871,230,0.0,282.9028290282903,229.99999999999997,20979.599530831096,23246.093662970743,83.53701934219606,278.2718213962832,154.5509084015798,-47.22099708968295,54.528562358908445,20406.66308347464
88,881,230,0.0,282.9028290282903,229.99999999999997,21220.467493297583,23512.983372074887,84.58842252531207,277.968071016681,154.37553803815,-47.763144013789535,55.096143431657005,20628.45285553924
89,891,230,0.0,282.9028290282903,229.99999999999997,21461.33545576407,23779.873081179026,85.64234903323349,277.6635916485425,154.19974679299256,-48.30529093789611,55.66372450440556,20850.24818988524
90,901,230,0.0,282.9028290282903,229.99999999999997,21702.20341823056,24046.762790283174,86.6988170143035,277.35837804881135,154.02353163902745,-48.84743786200268,56.23130557715411,21072.048910874084
91,911,230,0.0,282.9028290282903,229.99999999999997,21943.07138069705,24313.652499387314,87.75784483108744,277.05242491254245,153.8468895134432,-49.38958478610926,56.79888664990267,21293.854850180996
92,921,230,0.0,282.9028290282903,229.99999999999997,22183.939343163536,24580.542208491453,88.8194510637932,276.74572687191375,153.66981731712627,-49.93173171021584,57.36646772265122,21515.66584641835
93,931,230,0.0,282.9028290282903,229.99999999999997,22424.807305630024,24847.431917595597,89.88365451375886,276.4382784952187,153.4923119140795,-50.473878634322425,57.93404879539979,21737.4817447822
94,941,230,0.0,282.9028290282903,229.99999999999997,22665.67526809651,25114.321626699737,90.950474207009,276.1300742858387,153.31437013082856,-51.01602555842899,58.501629868148335,21959.302396720042
95,951,230,0.0,282.9028290282903,229.99999999999997,22906.543230563,25381.211335803877,92.01992939788185,275.82110868119554,153.1359887558175,-51.558172482535575,59.06921094089689,22181.127659618654
96,961,230,0.0,282.9028290282903,229.99999999999997,23147.41119302949,25648.101044908024,93.09203957272817,275.5113760516825,152.95716453879132,-52.10031940664216,59.63679201364545,22402.95739651028
97,971,230,0.0,282.9028290282903,229.99999999999997,23388.279155495977,25914.990754012164,94.16682445368392,275.20087069957435,152.77789419016688,-52.64246633074873,60.20437308639401,22624.79147579617
98,981,230,0.0,282.9028290282903,229.99999999999997,23629.147117962464,26181.880463116308,95.2443040025187,274.88958685791596,152.59817438039101,-53.18461325485531,60.77195415914256,22846.629770986194
