,rpm,t,id,iq,torque,motorpwr,accpwr,current,voltage,vout,vd,vq,phasepwr
0,1,160,0.0,425.0,149.0475,15.609029406836463,17.295323442478075,0.057195583310241244,302.3891424802253,171.46752611950788,-0.033379421944391544,2.3662334787469765,1005.7492831362197
1,11,160,0.0,425.0,149.0475,171.69932347520108,190.24855786725882,0.6294953801491748,302.2238050689185,171.37206852058281,-0.36717364138830694,2.611068266216741,1120.6222485802296
2,21,160,0.0,425.0,149.0475,327.7896175435657,363.2017922920396,1.2024212839965198,302.058286775297,171.27650648920462,-0.7009678608322225,2.8559030536865055,1249.7846159586238
3,31,160,0.0,425.0,149.0475,483.87991161193037,536.1550267168204,1.7759743228743172,301.8925873023652,171.18083985390285,-1.034762080276138,3.1007378411562705,1389.256530432924
4,41,160,0.0,425.0,149.0475,639.970205680295,709.1082611416011,2.3501555270564225,301.72670635247704,171.0850684428315,-1.3685562997200533,3.3455726286260346,1536.2325954112712
5,51,160,0.0,425.0,149.0475,796.0604997486596,882.061495566382,2.9249659290746757,301.56064362733395,170.98919208376776,-1.7023505191639692,3.5904074160957995,1688.7546375502343
6,61,160,0.0,425.0,149.0475,952.1507938170242,1055.0147299911628,3.500445708658632,301.3943875190121,170.89320407487375,-2.0361447386078844,3.835242203565564,1845.448081979181
7,71,160,0.0,425.0,149.0475,1108.2410878853889,1227.9679644159435,4.076478468074063,301.22797165481705,170.7971238308833,-2.3699389580518,4.0800769910353285,2005.3353284435252
8,81,160,0.0,425.0,149.0475,1264.3313819537536,1400.9211988407244,4.6532746362057615,301.0613352418437,170.70091625299636,-2.7037331774957156,4.3249117785050935,2167.7097809708316
9,91,160,0.0,425.0,149.0475,1420.4216760221182,1573.8744332655049,5.230650850804595,300.8945312534462,170.60461192539313,-3.037527396939631,4.5697465659748575,2332.0519651841723
10,101,160,0.0,425.0,149.0475,1576.5119700904827,1746.8276676902856,5.80867106647509,300.7275412131389,170.50820018066975,-3.3713216163835464,4.8145813534446225,2497.973538873453
11,111,160,0.0,425.0,149.0475,1732.6022641588474,1919.7809021150665,6.387337420363698,300.5603645035005,170.41168066235778,-3.7051158358274616,5.0594161409143865,2665.179542224952
12,121,160,0.0,425.0,149.0475,1888.692558227212,2092.7341365398474,6.9666520590836365,300.39300050437436,170.31505301240963,-4.038910055271378,5.3042509283841515,2833.442595583453
13,131,160,0.0,425.0,149.0475,2044.7828522955767,2265.6873709646284,7.546617138767349,300.22544859285375,170.21831687118998,-4.372704274715293,5.549085715853916,3002.5849948717237
14,141,160,0.0,425.0,149.0475,2200.873146363941,2438.6406053894084,8.127234825119348,300.05770814326667,170.1214718774669,-4.7064984941592085,5.793920503323681,3172.466094252358
15,151,160,0.0,425.0,149.0475,2356.9634404323056,2611.5938398141893,8.708507293469394,299.8897785271603,170.02451766840295,-5.040292713603123,6.0387552907934445,3342.973279241495
16,161,160,0.0,425.0,149.0475,2513.0537345006705,2784.5470742389703,9.290436728825998,299.7216591132858,169.9274538795465,-5.374086933047039,6.2835900782632095,3514.015414174262
17,171,160,0.0,425.0,149.0475,2669.144028569035,2957.500308663751,9.873025325930353,299.55334926758235,169.83028014482235,-5.7078811524909545,6.5284248657329735,3685.51801992282
18,181,160,0.0,425.0,149.0475,2825.2343226374,3130.453543088532,10.456285815091654,299.3848453122637,169.73299434085962,-6.041675371934871,6.773259653202739,3857.419678760297
19,191,160,0.0,425.0,149.0475,2981.324616705764,3303.4067775133126,11.040188833336213,299.21615573029277,169.63560136529924,-6.375469591378786,7.018094440672503,4029.6693213945478
20,201,160,0.0,425.0,149.0475,3137.414910774129,3476.3600119380935,11.624768182273469,299.0472707563848,169.53809558015138,-6.709263810822702,7.262929228142268,4202.224156358088
21,211,160,0.0,425.0,149.0475,3293.5052048424936,3649.3132463628745,12.210015570340301,298.8781927859723,169.4404783684197,-7.043058030266616,7.507764015612032,4375.0480728284965
22,221,160,0.0,425.0,149.0475,3449.5954989108586,3822.2664807876554,12.795933241762278,298.7089211706985,169.3427493557752,-7.376852249710532,7.752598803081797,4548.110396376839
23,231,160,0.0,425.0,149.0475,3605.6857929792227,3995.219715212436,13.38252345082861,298.53945525929925,169.24490816621037,-7.710646469154448,7.997433590551562,4721.384910647688
24,241,160,0.0,425.0,149.0475,3761.776087047587,4168.172949637216,13.969788461948689,298.36979439758665,169.14695442202967,-8.044440688598364,8.242268378021326,4894.849081446957
25,251,160,0.0,425.0,149.0475,3917.8663811159518,4341.126184061996,14.557730549708877,298.19993792843275,169.04888774384006,-8.378234908042279,8.487103165491092,5068.483436352772
26,261,160,0.0,425.0,149.0475,4073.956675184317,4514.079418486778,15.146351998929799,298.0298851917528,168.95070775054145,-8.712029127486193,8.731937952960855,5242.271064892821
27,271,160,0.0,425.0,149.0475,4230.046969252681,4687.032652911559,15.735655104723913,297.85963552448885,168.85241405931717,-9.045823346930108,8.976772740430619,5416.197212974476
28,281,160,0.0,425.0,149.0475,4386.137263321046,4859.98588733634,16.325642172553568,297.68918826059286,168.75400628562417,-9.379617566374025,9.221607527900385,5590.248951580092
29,291,160,0.0,425.0,149.0475,4542.22755738941,5032.93912176112,16.916315518289387,297.5185427310098,168.6554840431834,-9.713411785817941,9.466442315370148,5764.414904415015
30,301,160,0.0,425.0,149.0475,4698.317851457775,5205.892356185901,17.5076774682691,297.34769826366073,168.55684694396984,-10.047206005261856,9.711277102839913,5938.685022682334
31,311,160,0.0,425.0,149.0475,4854.40814552614,5378.845590610683,18.0997303593567,297.17665418342546,168.45809459820273,-10.381000224705772,9.956111890309678,6113.050397781032
32,321,160,0.0,425.0,149.0475,5010.498439594505,5551.798825035463,18.692476539002072,297.00540981212595,168.35922661433574,-10.714794444149687,10.200946677779442,6287.503104713351
33,331,160,0.0,425.0,149.0475,5166.588733662869,5724.752059460243,19.28604117022328,296.8339289901661,168.26022211561636,-11.048588663593602,10.445781465249208,6462.036070507427
34,341,160,0.0,425.0,149.0475,5322.679027731234,5897.705293885024,19.880058207055672,296.6623174682252,168.16114215722774,-11.382382883037517,10.690616252718971,6636.642963131885
35,351,160,0.0,425.0,149.0475,5478.769321799598,6070.658528309805,20.474898443835283,296.4904681238196,168.0619248919751,-11.716177102481433,10.935451040188735,6811.3180972868
36,361,160,0.0,425.0,149.0475,5634.859615867963,6243.611762734586,21.07044146603753,296.31841574470536,167.9625904045788,-12.049971321925348,11.180285827658501,6986.056354164006
37,371,160,0.0,425.0,149.0475,5790.9499099363275,6416.564997159366,21.66668967495013,296.14615963715056,167.86313829451248,-12.383765541369264,11.425120615128264,7160.853112826272
38,381,160,0.0,425.0,149.0475,5947.040204004692,6589.518231584147,22.26386415930471,295.97363592862047,167.76353168495103,-12.717559760813181,11.669955402598031,7335.704191294928
39,391,160,0.0,425.0,149.0475,6103.1304980730565,6762.471466008928,22.861311312880595,295.80103344595244,167.66387959511985,-13.051353980257097,11.914790190067794,7510.605795785057
40,401,160,0.0,425.0,149.0475,6259.220792141422,6935.424700433709,23.45968959948513,295.6281619589524,167.56407219556516,-13.385148199701009,12.159624977537558,7685.554476806995
41,411,160,0.0,425.0,149.0475,6415.3110862097865,7108.377934858489,24.058782788099677,295.4550839367616,167.46414555286248,-13.718942419144927,12.404459765007324,7860.547091077432
42,421,160,0.0,425.0,149.0475,6571.401380278151,7281.33116928327,24.65892311035888,295.2817033976609,167.36404425194047,-14.052736638588843,12.649294552477087,8035.580768364756
43,431,160,0.0,425.0,149.0475,6727.4916743465155,7454.284403708051,25.259123709339416,295.10830544461544,167.26393289707275,-14.386530858032758,12.894129339946854,8210.652882540524
44,441,160,0.0,425.0,149.0475,6883.58196841488,7627.237638132832,25.860775732809515,294.9344881750349,167.16357944969062,-14.720325077476671,13.138964127416617,8385.761026228827
45,451,160,0.0,425.0,149.0475,7039.672262483244,7800.190872557611,26.462791944716997,294.7605656914149,167.06316525695448,-15.05411929692059,13.383798914886384,8560.902988543648
46,461,160,0.0,425.0,149.0475,7195.762556551609,7973.144106982393,27.06505864082637,294.5865708429089,166.9627092843319,-15.387913516364504,13.628633702356147,8736.07673548502
47,471,160,0.0,425.0,149.0475,7351.852850619975,8146.097341407175,27.66901736288286,294.4120871681068,166.86197108771572,-15.721707735808419,13.87346848982591,8911.280392631548
48,481,160,0.0,425.0,149.0475,7507.943144688338,8319.050575831954,28.272660153710554,294.23769476583664,166.76128558732043,-16.055501955252335,14.118303277295677,9086.51222982208
49,491,160,0.0,425.0,149.0475,7664.033438756704,8492.003810256736,28.87818454665208,294.06275876871587,166.6602862422918,-16.389296174696252,14.36313806476544,9261.770647565334
50,501,160,0.0,425.0,149.0475,7820.123732825067,8664.957044681514,29.48320117680573,293.8879694642644,166.5593715903153,-16.72309039414016,14.607972852235203,9437.054164954716
51,511,160,0.0,425.0,149.0475,7976.214026893433,8837.910279106296,30.090315045797002,293.7125742675129,166.4581071262562,-17.056884613584078,14.852807639704967,9612.36140889768
52,521,160,0.0,425.0,149.0475,8132.304320961797,9010.863513531078,30.6974983431707,293.5371590129016,166.35683108178645,-17.390678833027998,15.097642427174733,9787.691104496073
53,531,160,0.0,425.0,149.0475,8288.394615030162,9183.816747955858,31.30543066733212,293.3615273644514,166.25543010227548,-17.72447305247191,15.342477214644497,9963.04206643671
54,541,160,0.0,425.0,149.0475,8444.484909098526,9356.76998238064,31.913183690179732,293.1859475161507,166.1540590295948,-18.05826727191583,15.587312002114263,10138.413191270778
55,551,160,0.0,425.0,149.0475,8600.57520316689,9529.72321680542,32.523553479488164,293.00961168401943,166.05225148944604,-18.392061491359748,15.83214678958403,10313.80345047689
56,561,160,0.0,425.0,149.0475,8756.665497235255,9702.676451230202,33.133749550792196,292.83332603901977,165.95047292485123,-18.725855710803657,16.07698157705379,10489.211884216775
57,571,160,0.0,425.0,149.0475,8912.75579130362,9875.629685654982,33.74470581576052,292.6568207740704,165.84856756261934,-19.059649930247573,16.321816364523556,10664.63759570431
58,581,160,0.0,425.0,149.0475,9068.846085371984,10048.582920079763,34.35642510820429,292.4800950704834,165.74653493008063,-19.393444149691494,16.566651151993323,10840.0797461188
59,591,160,0.0,425.0,149.0475,9224.936379440349,10221.536154504542,34.96891027903344,292.30314810463085,165.64437455171338,-19.727238369135407,16.811485939463086,11015.53755000227
60,601,160,0.0,425.0,149.0475,9381.026673508715,10394.489388929325,35.582164196389904,292.1259790479066,165.54208594912154,-20.06103258857932,17.05632072693285,11191.010271087898
61,611,160,0.0,425.0,149.0475,9537.116967577078,10567.442623354103,36.196189745781865,291.94858706668725,165.4396686410125,-20.394826808023236,17.301155514402613,11366.497218513254
62,621,160,0.0,425.0,149.0475,9693.207261645444,10740.395857778887,36.81098983021962,291.7709713222932,165.33712214317427,-20.728621027467153,17.54599030187238,11541.997743377624
63,631,160,0.0,425.0,149.0475,9849.297555713807,10913.349092203665,37.426567370352316,291.59313097094883,165.23444596845283,-21.06241524691107,17.790825089342146,11717.511235607524
64,641,160,0.0,425.0,149.0475,10005.387849782173,11086.302326628449,38.04292530460639,291.41506516374284,165.13163962672897,-21.396209466354986,18.03565987681191,11893.037121098749
65,651,160,0.0,425.0,149.0475,10161.478143850538,11259.255561053229,38.66006658932493,291.2367730465877,165.02870262489506,-21.7300036857989,18.280494664281676,12068.57485910689
66,661,160,0.0,425.0,149.0475,10317.568437918902,11432.20879547801,39.27799419890867,291.0582537601789,164.9256344668314,-22.063797905242815,18.52532945175144,12244.123939861556
67,671,160,0.0,425.0,149.0475,10473.658731987267,11605.162029902789,39.89671112595814,290.8795064399543,164.8224346533828,-22.397592124686728,18.770164239221202,12419.683882382216
68,681,160,0.0,425.0,149.0475,10629.74902605563,11778.115264327567,40.51622038141721,290.70053021605213,164.71910268233435,-22.731386344130645,19.014999026690965,12595.254232476143
69,691,160,0.0,425.0,149.0475,10785.839320123996,11951.068498752351,41.13652499471808,290.52132421326957,164.61563804838744,-23.065180563574557,19.259833814160732,12770.834560900932
70,701,160,0.0,425.0,149.0475,10941.92961419236,12124.021733177133,41.75762801392747,290.34188755101997,164.51204024313515,-23.398974783018474,19.504668601630495,12946.42446167609
71,711,160,0.0,425.0,149.0475,11098.019908260725,12296.974967601913,42.37953250589438,290.16221934329076,164.40830875503787,-23.73276900246239,19.749503389100262,13122.023550529782
72,721,160,0.0,425.0,149.0475,11254.11020232909,12469.928202026693,43.00224155639926,289.9823186985999,164.30444306939822,-24.066563221906303,19.994338176570025,13297.631463468268
73,731,160,0.0,425.0,149.0475,11410.200496397454,12642.881436451475,43.62575827030446,289.80218471995266,164.20044266833602,-24.400357441350227,20.239172964039792,13473.247855456908
74,741,160,0.0,425.0,149.0475,11566.290790465819,12815.834670876253,44.2500857717062,289.6218165047977,164.09630703076309,-24.73415166079414,20.48400775150956,13648.872399202686
75,751,160,0.0,425.0,149.0475,11722.381084534183,12988.787905301035,44.87522720408815,289.4412131449825,163.99203563235722,-25.06794588023805,20.728842538979315,13824.504784029314
76,761,160,0.0,425.0,149.0475,11878.471378602548,13161.741139725815,45.501185730476195,289.260373726709,163.8876279455369,-25.40174009968197,20.973677326449085,14000.144714836764
77,771,160,0.0,425.0,149.0475,12034.561672670912,13334.694374150597,46.127964533594955,289.07929733048803,163.78308343943485,-25.735534319125886,21.218512113918848,14175.791911137947
78,781,160,0.0,425.0,149.0475,12190.651966739277,13507.647608575377,46.75556681602565,288.8979830310938,163.67840157987166,-26.069328538569803,21.463346901388615,14351.446106165964
79,791,160,0.0,425.0,149.0475,12346.742260807641,13680.600843000158,47.383995800365604,288.71642989751797,163.57358182932944,-26.403122758013716,21.708181688858378,14527.107046045956
80,801,160,0.0,425.0,149.0475,12502.832554876008,13853.55407742494,48.01348712170292,288.5345698547837,163.46858488470195,-26.736916977457632,21.95301647632814,14702.774489026207
81,811,160,0.0,425.0,149.0475,12658.92284894437,14026.50731184972,48.64334686621047,288.3526033745954,163.36352648838175,-27.070711196901545,22.197851263797908,14878.448204763541
82,821,160,0.0,425.0,149.0475,12815.013143012737,14199.460546274502,49.274275494447224,288.17032809389787,163.25828980600443,-27.404505416345454,22.442686051267668,15054.127973658682
83,831,160,0.0,425.0,149.0475,12971.103437081101,14372.413780699282,49.90604391838675,287.9878101962217,163.15291304864917,-27.738299635789375,22.687520838737434,15229.813586237497
84,841,160,0.0,425.0,149.0475,13127.193731149466,14545.367015124062,50.53865546315328,287.80504872093866,163.047395661697,-28.07209385523329,22.9323556262072,15405.504842574466
85,851,160,0.0,425.0,149.0475,13283.28402521783,14718.320249548844,51.17211347487687,287.6220427013517,162.94173708702513,-28.40588807467721,23.177190413676968,15581.20155175513
86,861,160,0.0,425.0,149.0475,13439.374319286193,14891.273483973622,51.80642132086404,287.438791164646,162.8359367629787,-28.739682294121124,23.42202520114673,15756.903531374344
87,871,160,0.0,425.0,149.0475,13595.46461335456,15064.226718398406,52.441582389770225,287.255293131839,162.7299941243418,-29.07347651356504,23.666859988616494,15932.610607067758
88,881,160,0.0,425.0,149.0475,13751.554907422922,15237.179952823184,53.07760009177356,287.07154761773023,162.62390860230875,-29.407270733008954,23.91169477608626,16108.322612073813
89,891,160,0.0,425.0,149.0475,13907.645201491288,15410.133187247968,53.71447785875085,286.8875536308505,162.51767962445444,-29.741064952452874,24.156529563556024,16284.039386824112
90,901,160,0.0,425.0,149.0475,14063.735495559653,15583.086421672748,54.35265610378694,286.70318393585956,162.41123373142102,-30.074859171896787,24.401364351025787,16459.76077855991
91,911,160,0.0,425.0,149.0475,14219.825789628017,15756.039656097528,54.990827424693265,286.51881624124974,162.30478899330816,-30.408653391340703,24.646199138495554,16635.486640972944
92,921,160,0.0,425.0,149.0475,14375.916083696384,15928.99289052231,55.63079812575085,286.3339287057142,162.1980441248969,-30.742447610784616,24.891033925965317,16811.216833868664
93,931,160,0.0,425.0,149.0475,14532.006377764747,16101.94612494709,56.27065898336909,286.1490729039483,162.0913175779861,-31.076241830228533,25.135868713435084,16986.951222850406
94,941,160,0.0,425.0,149.0475,14688.096671833111,16274.89935937187,56.91244184800986,285.96366183435356,161.98427044704485,-31.410036049672446,25.380703500904843,17162.68967902288
95,951,160,0.0,425.0,149.0475,14844.186965901476,16447.85259379665,57.554000789267015,285.7783154562244,161.87726066573865,-31.74383026911636,25.62553828837461,17338.43207871369
96,961,160,0.0,425.0,149.0475,15000.277259969842,16620.805828221433,58.19761616155732,285.5923749751697,161.7699078789485,-32.077624488560275,25.870373075844377,17514.17830321158
97,971,160,0.0,425.0,149.0475,15156.367554038206,16793.759062646215,58.8408814615287,285.40653563000797,161.66261348299332,-32.4114187080042,26.11520786331414,17689.92823852026
98,981,160,0.0,425.0,149.0475,15312.45784810657,16966.712297070993,59.485657917225005,285.2202597119573,161.55506703156323,-32.74521292744811,26.360042650783907,17865.681775126734
99,991,160,0.0,425.0,149.0475,15468.548142174934,17139.66553149577,60.13206166561957,285.03351366904616,161.4472491534184,-33.07900714689203,26.604877438253673,18041.438807783165
100,1001,160,0.0,425.0,149.0475,15624.6384362433,17312.618765920553,60.77790136253094,284.84693058060844,161.33952535708264,-33.41280136633594,26.849712225723433,18217.19923530132
101,1011,160,0.0,425.0,149.0475,15780.728730311665,17485.572000345335,61.425375741423466,284.65987523254637,161.23152890152565,-33.74659558577985,27.094547013193196,18392.96296035882
102,1021,160,0.0,425.0,149.0475,15936.819024380029,17658.525234770117,62.07461754265781,284.47230927616977,161.1232376461208,-34.08038980522377,27.33938180066296,18568.729889316335
103,1031,160,0.0,425.0,149.0475,16092.909318448392,17831.478469194895,62.72395615424348,284.28471535128267,161.0149302430889,-34.414184024667684,27.584216588132726,18744.49993204508
104,1041,160,0.0,425.0,149.0475,16248.999612516756,18004.431703619677,63.37325434587514,284.0971331037203,160.90662958196356,-34.74797824411161,27.829051375602493,18920.273001763908
105,1051,160,0.0,425.0,149.0475,16405.089906585123,18177.38493804446,64.02437830237817,283.90902339268655,160.79802438966104,-35.08177246355552,28.073886163072256,19096.049014885357
106,1061,160,0.0,425.0,149.0475,16561.18020065349,18350.33817246924,64.67748591550038,283.7203406032556,160.68908833039163,-35.41556668299944,28.318720950542023,19271.827890870183
107,1071,160,0.0,425.0,149.0475,16717.27049472185,18523.291406894023,65.33051350795442,283.53168093179556,160.58016561828896,-35.74936090244336,28.56355573801179,19447.609552089678
108,1081,160,0.0,425.0,149.0475,16873.360788790214,18696.2446413188,65.9844731867501,283.3427519805915,160.4710874374536,-36.083155121887266,28.808390525481553,19623.39392369544
109,1091,160,0.0,425.0,149.0475,17029.45108285858,18869.197875743583,66.6393689438696,283.1535525963597,160.36185312203685,-36.41694934133118,29.053225312951312,19799.180933496067
110,1101,160,0.0,425.0,149.0475,17185.541376926947,19042.151110168365,67.29520479952858,282.9640816176598,160.25246200148084,-36.7507435607751,29.29806010042108,19974.970511840347
